


                               __________________________________________
                              |                                          |
                              |  NUMERICAL ELECTROMAGNETICS CODE (nec2c) |
                              |   Translated to 'C' in Double Precision  |
                              |__________________________________________|



                               ---------------- COMMENTS ----------------
                               --- NEC2 Input File created or edited by xnec2c 4.1.1 ---
                               --- End Comments ---



                               -------- STRUCTURE SPECIFICATION --------
                                     COORDINATES MUST BE INPUT IN
                                     METERS OR BE SCALED TO METERS
                                     BEFORE STRUCTURE INPUT IS ENDED

  WIRE                                                                                 SEG FIRST  LAST  TAG
   No:        X1         Y1         Z1         X2         Y2         Z2       RADIUS   No:   SEG   SEG  No:
     1     0.00000    0.00000   -1.00000    0.00000    0.00000    1.00000    0.01500    15     1    15    1

     TOTAL SEGMENTS USED: 15   SEGMENTS IN A SYMMETRIC CELL: 15   SYMMETRY FLAG: 0


                               ---------- SEGMENTATION DATA ----------
                                        COORDINATES IN METERS
                            I+ AND I- INDICATE THE SEGMENTS BEFORE AND AFTER I

   SEG    COORDINATES OF SEGM CENTER     SEGM    ORIENTATION ANGLES    WIRE    CONNECTION DATA   TAG
   No:       X         Y         Z      LENGTH     ALPHA      BETA    RADIUS    I-     I    I+   No:
     1    0.0000    0.0000   -0.9333    0.1333   90.0000    0.0000    0.0150     0     1     2     1
     2    0.0000    0.0000   -0.8000    0.1333   90.0000    0.0000    0.0150     1     2     3     1
     3    0.0000    0.0000   -0.6667    0.1333   90.0000    0.0000    0.0150     2     3     4     1
     4    0.0000    0.0000   -0.5333    0.1333   90.0000    0.0000    0.0150     3     4     5     1
     5    0.0000    0.0000   -0.4000    0.1333   90.0000    0.0000    0.0150     4     5     6     1
     6    0.0000    0.0000   -0.2667    0.1333   90.0000    0.0000    0.0150     5     6     7     1
     7    0.0000    0.0000   -0.1333    0.1333   90.0000    0.0000    0.0150     6     7     8     1
     8    0.0000    0.0000   -0.0000    0.1333   90.0000    0.0000    0.0150     7     8     9     1
     9    0.0000    0.0000    0.1333    0.1333   90.0000    0.0000    0.0150     8     9    10     1
    10    0.0000    0.0000    0.2667    0.1333   90.0000    0.0000    0.0150     9    10    11     1
    11    0.0000    0.0000    0.4000    0.1333   90.0000    0.0000    0.0150    10    11    12     1
    12    0.0000    0.0000    0.5333    0.1333   90.0000    0.0000    0.0150    11    12    13     1
    13    0.0000    0.0000    0.6667    0.1333   90.0000    0.0000    0.0150    12    13    14     1
    14    0.0000    0.0000    0.8000    0.1333   90.0000    0.0000    0.0150    13    14    15     1
    15    0.0000    0.0000    0.9333    0.1333   90.0000    0.0000    0.0150    14    15     0     1



  DATA CARD No:   1 EX   0     1     8     0  1.00000E+00  0.00000E+00  0.00000E+00  0.00000E+00  0.00000E+00  0.00000E+00
  DATA CARD No:   2 FR   0    11     0     0  5.00000E+01  5.00000E+00  0.00000E+00  0.00000E+00  0.00000E+00  0.00000E+00
  DATA CARD No:   3 NH   0     0     0     0  0.00000E+00  0.00000E+00  0.00000E+00  0.00000E+00  0.00000E+00  0.00000E+00
  DATA CARD No:   4 NE   0    10     1    10 -1.35000E+00  0.00000E+00 -1.35000E+00  3.00000E-01  0.00000E+00  3.00000E-01

  WHEN MULTIPLE FREQUENCIES ARE REQUESTED, ONLY ONE NEAR FIELD CARD CAN BE USED -
  LAST CARD READ WILL BE USED
  DATA CARD No:   5 RP   0    19    37  1000  0.00000E+00  0.00000E+00  1.00000E+01  1.00000E+01  0.00000E+00  0.00000E+00


                               --------- FREQUENCY --------
                                FREQUENCY : 5.0000E+01 MHz
                                WAVELENGTH: 5.9960E+00 Mtr

                        APPROXIMATE INTEGRATION EMPLOYED FOR SEGMENTS 
                        THAT ARE MORE THAN 1.000 WAVELENGTHS APART


                          ------ STRUCTURE IMPEDANCE LOADING ------
                                 THIS STRUCTURE IS NOT LOADED


                            -------- ANTENNA ENVIRONMENT --------
                            FREE SPACE


                             ---------- MATRIX TIMING ----------
                               FILL: 0 msec  FACTOR: 0 msec


                        --------- ANTENNA INPUT PARAMETERS ---------
  TAG   SEG       VOLTAGE (VOLTS)         CURRENT (AMPS)         IMPEDANCE (OHMS)        ADMITTANCE (MHOS)     POWER
  No:   No:     REAL      IMAGINARY     REAL      IMAGINARY     REAL      IMAGINARY    REAL       IMAGINARY   (WATTS)
    1     8  1.0000E+00  0.0000E+00  6.9303E-04  4.9148E-03  2.8131E+01 -1.9950E+02  6.9303E-04  4.9148E-03  3.4652E-04


                           -------- CURRENTS AND LOCATION --------
                                  DISTANCES IN WAVELENGTHS

   SEG  TAG    COORDINATES OF SEGM CENTER     SEGM    ------------- CURRENT (AMPS) -------------
   No:  No:       X         Y         Z      LENGTH     REAL      IMAGINARY    MAGN        PHASE
     1    1    0.0000    0.0000   -0.1557   0.02224  1.2937E-04  6.3121E-04  6.4433E-04   78.417
     2    1    0.0000    0.0000   -0.1334   0.02224  2.8722E-04  1.4506E-03  1.4788E-03   78.800
     3    1    0.0000    0.0000   -0.1112   0.02224  4.1059E-04  2.1542E-03  2.1929E-03   79.209
     4    1    0.0000    0.0000   -0.0889   0.02224  5.1145E-04  2.7981E-03  2.8445E-03   79.642
     5    1    0.0000    0.0000   -0.0667   0.02224  5.9040E-04  3.3870E-03  3.4381E-03   80.112
     6    1    0.0000    0.0000   -0.0445   0.02224  6.4724E-04  3.9257E-03  3.9787E-03   80.638
     7    1    0.0000    0.0000   -0.0222   0.02224  6.8155E-04  4.4466E-03  4.4986E-03   81.286
     8    1    0.0000    0.0000   -0.0000   0.02224  6.9303E-04  4.9148E-03  4.9634E-03   81.974
     9    1    0.0000    0.0000    0.0222   0.02224  6.8155E-04  4.4466E-03  4.4986E-03   81.286
    10    1    0.0000    0.0000    0.0445   0.02224  6.4724E-04  3.9257E-03  3.9787E-03   80.638
    11    1    0.0000    0.0000    0.0667   0.02224  5.9040E-04  3.3870E-03  3.4381E-03   80.112
    12    1    0.0000    0.0000    0.0889   0.02224  5.1145E-04  2.7981E-03  2.8445E-03   79.642
    13    1    0.0000    0.0000    0.1112   0.02224  4.1059E-04  2.1542E-03  2.1929E-03   79.209
    14    1    0.0000    0.0000    0.1334   0.02224  2.8722E-04  1.4506E-03  1.4788E-03   78.800
    15    1    0.0000    0.0000    0.1557   0.02224  1.2937E-04  6.3121E-04  6.4433E-04   78.417


                               ---------- POWER BUDGET ---------
                               INPUT POWER   =  3.4652E-04 Watts
                               RADIATED POWER=  3.4652E-04 Watts
                               STRUCTURE LOSS=  0.0000E+00 Watts
                               NETWORK LOSS  =  0.0000E+00 Watts
                               EFFICIENCY    =  100.00 Percent


                             -------- NEAR ELECTRIC FIELDS --------
     ------- LOCATION -------     ------- EX ------    ------- EY ------    ------- EZ ------
      X         Y         Z       MAGNITUDE   PHASE    MAGNITUDE   PHASE    MAGNITUDE   PHASE
    METERS    METERS    METERS     VOLTS/M  DEGREES    VOLTS/M   DEGREES     VOLTS/M  DEGREES
   -1.3500    0.0000   -1.3500   6.9505E-02  -24.51   0.0000E+00    0.00   6.3078E-02 -109.41
   -1.0500    0.0000   -1.3500   9.1405E-02  -18.99   0.0000E+00    0.00   7.9855E-02  -82.30
   -0.7500    0.0000   -1.3500   1.2141E-01  -15.09   0.0000E+00    0.00   1.2073E-01  -56.25
   -0.4500    0.0000   -1.3500   1.5257E-01  -12.77   0.0000E+00    0.00   2.1575E-01  -36.25
   -0.1500    0.0000   -1.3500   1.0736E-01  -11.84   0.0000E+00    0.00   3.9494E-01  -24.92
    0.1500    0.0000   -1.3500   1.0736E-01  168.16   0.0000E+00    0.00   3.9494E-01  -24.92
    0.4500    0.0000   -1.3500   1.5257E-01  167.23   0.0000E+00    0.00   2.1575E-01  -36.25
    0.7500    0.0000   -1.3500   1.2141E-01  164.91   0.0000E+00    0.00   1.2073E-01  -56.25
    1.0500    0.0000   -1.3500   9.1405E-02  161.01   0.0000E+00    0.00   7.9855E-02  -82.30
    1.3500    0.0000   -1.3500   6.9505E-02  155.49   0.0000E+00    0.00   6.3078E-02 -109.41
   -1.3500    0.0000   -1.0500   7.5472E-02  -20.77   0.0000E+00    0.00   7.0840E-02 -115.05
   -1.0500    0.0000   -1.0500   1.1143E-01  -15.82   0.0000E+00    0.00   8.4458E-02  -89.16
   -0.7500    0.0000   -1.0500   1.7945E-01  -12.62   0.0000E+00    0.00   1.2369E-01  -59.61
   -0.4500    0.0000   -1.0500   3.3849E-01  -11.12   0.0000E+00    0.00   2.5570E-01  -33.37
   -0.1500    0.0000   -1.0500   1.0201E+00  -11.21   0.0000E+00    0.00   1.0666E+00  -16.22
    0.1500    0.0000   -1.0500   1.0201E+00  168.79   0.0000E+00    0.00   1.0666E+00  -16.22
    0.4500    0.0000   -1.0500   3.3849E-01  168.88   0.0000E+00    0.00   2.5570E-01  -33.37
    0.7500    0.0000   -1.0500   1.7945E-01  167.38   0.0000E+00    0.00   1.2369E-01  -59.61
    1.0500    0.0000   -1.0500   1.1143E-01  164.18   0.0000E+00    0.00   8.4458E-02  -89.16
    1.3500    0.0000   -1.0500   7.5472E-02  159.23   0.0000E+00    0.00   7.0840E-02 -115.05
   -1.3500    0.0000   -0.7500   7.0798E-02  -18.29   0.0000E+00    0.00   8.0242E-02 -123.73
   -1.0500    0.0000   -0.7500   1.1440E-01  -13.84   0.0000E+00    0.00   8.8995E-02 -104.87
   -0.7500    0.0000   -0.7500   2.0975E-01  -11.13   0.0000E+00    0.00   1.0589E-01  -80.82
   -0.4500    0.0000   -0.7500   4.7775E-01   -9.98   0.0000E+00    0.00   1.5760E-01  -51.25
   -0.1500    0.0000   -0.7500   1.9700E+00  -10.01   0.0000E+00    0.00   2.4195E-01  -29.88
    0.1500    0.0000   -0.7500   1.9700E+00  169.99   0.0000E+00    0.00   2.4195E-01  -29.88
    0.4500    0.0000   -0.7500   4.7775E-01  170.02   0.0000E+00    0.00   1.5760E-01  -51.25
    0.7500    0.0000   -0.7500   2.0975E-01  168.87   0.0000E+00    0.00   1.0589E-01  -80.82
    1.0500    0.0000   -0.7500   1.1440E-01  166.16   0.0000E+00    0.00   8.8995E-02 -104.87
    1.3500    0.0000   -0.7500   7.0798E-02  161.71   0.0000E+00    0.00   8.0242E-02 -123.73
   -1.3500    0.0000   -0.4500   5.1393E-02  -16.78   0.0000E+00    0.00   9.0647E-02 -131.67
   -1.0500    0.0000   -0.4500   8.7927E-02  -12.62   0.0000E+00    0.00   1.0037E-01 -121.73
   -0.7500    0.0000   -0.4500   1.7259E-01  -10.00   0.0000E+00    0.00   1.1008E-01 -115.75
   -0.4500    0.0000   -0.4500   4.1456E-01   -8.43   0.0000E+00    0.00   1.1739E-01 -117.39
   -0.1500    0.0000   -0.4500   1.6322E+00   -7.55   0.0000E+00    0.00   1.0023E-01 -127.17
    0.1500    0.0000   -0.4500   1.6322E+00  172.45   0.0000E+00    0.00   1.0023E-01 -127.17
    0.4500    0.0000   -0.4500   4.1456E-01  171.57   0.0000E+00    0.00   1.1739E-01 -117.39
    0.7500    0.0000   -0.4500   1.7259E-01  170.00   0.0000E+00    0.00   1.1008E-01 -115.75
    1.0500    0.0000   -0.4500   8.7927E-02  167.38   0.0000E+00    0.00   1.0037E-01 -121.73
    1.3500    0.0000   -0.4500   5.1393E-02  163.22   0.0000E+00    0.00   9.0647E-02 -131.67
   -1.3500    0.0000   -0.1500   1.8886E-02  -16.06   0.0000E+00    0.00   9.7940E-02 -136.07
   -1.0500    0.0000   -0.1500   3.3241E-02  -12.00   0.0000E+00    0.00   1.1208E-01 -131.06
   -0.7500    0.0000   -0.1500   6.7914E-02   -9.25   0.0000E+00    0.00   1.3558E-01 -135.08
   -0.4500    0.0000   -0.1500   1.8026E-01   -6.90   0.0000E+00    0.00   2.1003E-01 -152.69
   -0.1500    0.0000   -0.1500   1.1146E+00   -3.76   0.0000E+00    0.00   5.4820E-01 -172.62
    0.1500    0.0000   -0.1500   1.1146E+00  176.24   0.0000E+00    0.00   5.4820E-01 -172.62
    0.4500    0.0000   -0.1500   1.8026E-01  173.10   0.0000E+00    0.00   2.1003E-01 -152.69
    0.7500    0.0000   -0.1500   6.7914E-02  170.75   0.0000E+00    0.00   1.3558E-01 -135.08
    1.0500    0.0000   -0.1500   3.3241E-02  168.00   0.0000E+00    0.00   1.1208E-01 -131.06
    1.3500    0.0000   -0.1500   1.8886E-02  163.94   0.0000E+00    0.00   9.7940E-02 -136.07
   -1.3500    0.0000    0.1500   1.8886E-02  163.94   0.0000E+00    0.00   9.7940E-02 -136.07
   -1.0500    0.0000    0.1500   3.3241E-02  168.00   0.0000E+00    0.00   1.1208E-01 -131.06
   -0.7500    0.0000    0.1500   6.7914E-02  170.75   0.0000E+00    0.00   1.3558E-01 -135.08
   -0.4500    0.0000    0.1500   1.8026E-01  173.10   0.0000E+00    0.00   2.1003E-01 -152.69
   -0.1500    0.0000    0.1500   1.1146E+00  176.24   0.0000E+00    0.00   5.4820E-01 -172.62
    0.1500    0.0000    0.1500   1.1146E+00   -3.76   0.0000E+00    0.00   5.4820E-01 -172.62
    0.4500    0.0000    0.1500   1.8026E-01   -6.90   0.0000E+00    0.00   2.1003E-01 -152.69
    0.7500    0.0000    0.1500   6.7914E-02   -9.25   0.0000E+00    0.00   1.3558E-01 -135.08
    1.0500    0.0000    0.1500   3.3241E-02  -12.00   0.0000E+00    0.00   1.1208E-01 -131.06
    1.3500    0.0000    0.1500   1.8886E-02  -16.06   0.0000E+00    0.00   9.7940E-02 -136.07
   -1.3500    0.0000    0.4500   5.1393E-02  163.22   0.0000E+00    0.00   9.0647E-02 -131.67
   -1.0500    0.0000    0.4500   8.7927E-02  167.38   0.0000E+00    0.00   1.0037E-01 -121.73
   -0.7500    0.0000    0.4500   1.7259E-01  170.00   0.0000E+00    0.00   1.1008E-01 -115.75
   -0.4500    0.0000    0.4500   4.1456E-01  171.57   0.0000E+00    0.00   1.1739E-01 -117.39
   -0.1500    0.0000    0.4500   1.6322E+00  172.45   0.0000E+00    0.00   1.0023E-01 -127.17
    0.1500    0.0000    0.4500   1.6322E+00   -7.55   0.0000E+00    0.00   1.0023E-01 -127.17
    0.4500    0.0000    0.4500   4.1456E-01   -8.43   0.0000E+00    0.00   1.1739E-01 -117.39
    0.7500    0.0000    0.4500   1.7259E-01  -10.00   0.0000E+00    0.00   1.1008E-01 -115.75
    1.0500    0.0000    0.4500   8.7927E-02  -12.62   0.0000E+00    0.00   1.0037E-01 -121.73
    1.3500    0.0000    0.4500   5.1393E-02  -16.78   0.0000E+00    0.00   9.0647E-02 -131.67
   -1.3500    0.0000    0.7500   7.0798E-02  161.71   0.0000E+00    0.00   8.0242E-02 -123.73
   -1.0500    0.0000    0.7500   1.1440E-01  166.16   0.0000E+00    0.00   8.8995E-02 -104.87
   -0.7500    0.0000    0.7500   2.0975E-01  168.87   0.0000E+00    0.00   1.0589E-01  -80.82
   -0.4500    0.0000    0.7500   4.7775E-01  170.02   0.0000E+00    0.00   1.5760E-01  -51.25
   -0.1500    0.0000    0.7500   1.9700E+00  169.99   0.0000E+00    0.00   2.4195E-01  -29.88
    0.1500    0.0000    0.7500   1.9700E+00  -10.01   0.0000E+00    0.00   2.4195E-01  -29.88
    0.4500    0.0000    0.7500   4.7775E-01   -9.98   0.0000E+00    0.00   1.5760E-01  -51.25
    0.7500    0.0000    0.7500   2.0975E-01  -11.13   0.0000E+00    0.00   1.0589E-01  -80.82
    1.0500    0.0000    0.7500   1.1440E-01  -13.84   0.0000E+00    0.00   8.8995E-02 -104.87
    1.3500    0.0000    0.7500   7.0798E-02  -18.29   0.0000E+00    0.00   8.0242E-02 -123.73
   -1.3500    0.0000    1.0500   7.5472E-02  159.23   0.0000E+00    0.00   7.0840E-02 -115.05
   -1.0500    0.0000    1.0500   1.1143E-01  164.18   0.0000E+00    0.00   8.4458E-02  -89.16
   -0.7500    0.0000    1.0500   1.7945E-01  167.38   0.0000E+00    0.00   1.2369E-01  -59.61
   -0.4500    0.0000    1.0500   3.3849E-01  168.88   0.0000E+00    0.00   2.5570E-01  -33.37
   -0.1500    0.0000    1.0500   1.0201E+00  168.79   0.0000E+00    0.00   1.0666E+00  -16.22
    0.1500    0.0000    1.0500   1.0201E+00  -11.21   0.0000E+00    0.00   1.0666E+00  -16.22
    0.4500    0.0000    1.0500   3.3849E-01  -11.12   0.0000E+00    0.00   2.5570E-01  -33.37
    0.7500    0.0000    1.0500   1.7945E-01  -12.62   0.0000E+00    0.00   1.2369E-01  -59.61
    1.0500    0.0000    1.0500   1.1143E-01  -15.82   0.0000E+00    0.00   8.4458E-02  -89.16
    1.3500    0.0000    1.0500   7.5472E-02  -20.77   0.0000E+00    0.00   7.0840E-02 -115.05
   -1.3500    0.0000    1.3500   6.9505E-02  155.49   0.0000E+00    0.00   6.3078E-02 -109.41
   -1.0500    0.0000    1.3500   9.1405E-02  161.01   0.0000E+00    0.00   7.9855E-02  -82.30
   -0.7500    0.0000    1.3500   1.2141E-01  164.91   0.0000E+00    0.00   1.2073E-01  -56.25
   -0.4500    0.0000    1.3500   1.5257E-01  167.23   0.0000E+00    0.00   2.1575E-01  -36.25
   -0.1500    0.0000    1.3500   1.0736E-01  168.16   0.0000E+00    0.00   3.9494E-01  -24.92
    0.1500    0.0000    1.3500   1.0736E-01  -11.84   0.0000E+00    0.00   3.9494E-01  -24.92
    0.4500    0.0000    1.3500   1.5257E-01  -12.77   0.0000E+00    0.00   2.1575E-01  -36.25
    0.7500    0.0000    1.3500   1.2141E-01  -15.09   0.0000E+00    0.00   1.2073E-01  -56.25
    1.0500    0.0000    1.3500   9.1405E-02  -18.99   0.0000E+00    0.00   7.9855E-02  -82.30
    1.3500    0.0000    1.3500   6.9505E-02  -24.51   0.0000E+00    0.00   6.3078E-02 -109.41


                             ---------- RADIATION PATTERNS -----------

 ---- ANGLES -----     ----- POWER GAINS -----       ---- POLARIZATION ----   ---- E(THETA) ----    ----- E(PHI) ------
  THETA      PHI       VERTC    HORIZ    TOTAL       AXIAL      TILT  SENSE   MAGNITUDE    PHASE    MAGNITUDE     PHASE
 DEGREES   DEGREES        DB       DB       DB       RATIO   DEGREES            VOLTS/M   DEGREES     VOLTS/M   DEGREES
    0.00      0.00   -999.99  -999.99  -999.99      0.0000      0.00         0.0000E+00      0.00  0.0000E+00      0.00
   10.00      0.00    -14.18  -999.99   -14.18      0.0000     -0.00 LINEAR  2.8185E-02    170.49  0.0000E+00      0.00
   20.00      0.00     -8.21  -999.99    -8.21      0.0000     -0.00 LINEAR  5.6040E-02    170.48  0.0000E+00      0.00
   30.00      0.00     -4.78  -999.99    -4.78      0.0000     -0.00 LINEAR  8.3114E-02    170.46  0.0000E+00      0.00
   40.00      0.00     -2.45  -999.99    -2.45      0.0000     -0.00 LINEAR  1.0875E-01    170.44  0.0000E+00      0.00
   50.00      0.00     -0.76  -999.99    -0.76      0.0000     -0.00 LINEAR  1.3204E-01    170.42  0.0000E+00      0.00
   60.00      0.00      0.46  -999.99     0.46      0.0000     -0.00 LINEAR  1.5190E-01    170.41  0.0000E+00      0.00
   70.00      0.00      1.29  -999.99     1.29      0.0000     -0.00 LINEAR  1.6717E-01    170.39  0.0000E+00      0.00
   80.00      0.00      1.78  -999.99     1.78      0.0000     -0.00 LINEAR  1.7682E-01    170.38  0.0000E+00      0.00
   90.00      0.00      1.94  -999.99     1.94      0.0000     -0.00 LINEAR  1.8013E-01    170.38  0.0000E+00      0.00
  100.00      0.00      1.78  -999.99     1.78      0.0000     -0.00 LINEAR  1.7682E-01    170.38  0.0000E+00      0.00
  110.00      0.00      1.29  -999.99     1.29      0.0000     -0.00 LINEAR  1.6717E-01    170.39  0.0000E+00      0.00
  120.00      0.00      0.46  -999.99     0.46      0.0000     -0.00 LINEAR  1.5190E-01    170.41  0.0000E+00      0.00
  130.00      0.00     -0.76  -999.99    -0.76      0.0000     -0.00 LINEAR  1.3204E-01    170.42  0.0000E+00      0.00
  140.00      0.00     -2.45  -999.99    -2.45      0.0000     -0.00 LINEAR  1.0875E-01    170.44  0.0000E+00      0.00
  150.00      0.00     -4.78  -999.99    -4.78      0.0000     -0.00 LINEAR  8.3114E-02    170.46  0.0000E+00      0.00
  160.00      0.00     -8.21  -999.99    -8.21      0.0000     -0.00 LINEAR  5.6040E-02    170.48  0.0000E+00      0.00
  170.00      0.00    -14.18  -999.99   -14.18      0.0000     -0.00 LINEAR  2.8185E-02    170.49  0.0000E+00      0.00
  180.00      0.00   -999.99  -999.99  -999.99      0.0000      0.00         1.6513E-12     -9.51  0.0000E+00      0.00
    0.00     10.00   -999.99  -999.99  -999.99      0.0000      0.00         0.0000E+00      0.00  0.0000E+00      0.00
   10.00     10.00    -14.18  -999.99   -14.18      0.0000     -0.00 LINEAR  2.8185E-02    170.49  0.0000E+00      0.00
